T4448 000:007.485   SEGGER J-Link V6.70e Log File
T4448 000:007.658   DLL Compiled: Apr 17 2020 17:55:05
T4448 000:007.671   Logging started @ 2021-01-07 07:20
T4448 000:007.687 JLINK_SetWarnOutHandler(...)
T4448 000:007.702 - 0.021ms
T4448 000:007.722 JLINK_OpenEx(...)
T4448 000:010.142   Firmware: J-Link V9 compiled Dec 13 2019 11:14:50
T4448 000:010.390   Decompressing FW timestamp took 169 us
T4448 000:019.094   Hardware: V9.30
T4448 000:019.144   S/N: 59300616
T4448 000:019.164   OEM: SEGGER
T4448 000:019.182   Feature(s): RDI, FlashBP, FlashDL, JFlash, GDB
T4448 000:021.544   TELNET listener socket opened on port 19021
T4448 000:021.788   WEBSRV Starting webserver
T4448 000:022.020   WEBSRV Webserver running on local port 19080
T4448 000:022.046 - 14.331ms returns "O.K."
T4448 000:022.081 JLINK_GetEmuCaps()
T4448 000:022.095 - 0.019ms returns 0xB9FF7BBF
T4448 000:022.111 JLINK_TIF_GetAvailable(...)
T4448 000:022.632 - 0.537ms
T4448 000:022.665 JLINK_SetErrorOutHandler(...)
T4448 000:022.692 - 0.035ms
T4448 000:022.726 JLINK_ExecCommand("ProjectFile = "D:\Jose\Work\Project\FW_G2_C7\FW_G2_C8\Src_ProjectFile\MDK\JLinkSettings.ini"", ...). 
T4448 000:038.654   Device "CORTEX-M4" selected.
T4448 000:039.930 - 17.232ms returns 0x00
T4448 000:041.466 JLINK_ExecCommand("Device = GD32E103VB", ...). 
T4448 000:044.092   Device "CORTEX-M4" selected.
T4448 000:045.371 - 3.887ms returns 0x00
T4448 000:045.411 JLINK_ExecCommand("DisableConnectionTimeout", ...). 
T4448 000:045.431 - 0.010ms returns 0x01
T4448 000:045.448 JLINK_GetHardwareVersion()
T4448 000:045.461 - 0.019ms returns 0x16B48
T4448 000:045.476 JLINK_GetDLLVersion()  returns 67005
T4448 000:045.500 JLINK_GetFirmwareString(...)
T4448 000:045.512 - 0.020ms
T4448 000:050.989 JLINK_GetDLLVersion()  returns 67005
T4448 000:051.056 JLINK_GetCompileDateTime()
T4448 000:051.069 - 0.018ms
T4448 000:054.753 JLINK_GetFirmwareString(...)
T4448 000:054.792 - 0.044ms
T4448 000:056.793 JLINK_GetHardwareVersion()
T4448 000:057.053 - 0.308ms returns 0x16B48
T4448 000:065.319 JLINK_TIF_Select(JLINKARM_TIF_SWD)
T4448 000:067.255 - 1.951ms returns 0x00
T4448 000:067.311 JLINK_SetSpeed(5000)
T4448 000:068.058 - 0.764ms
T4448 000:068.090 JLINK_GetId()
T4448 000:071.638   Found SW-DP with ID 0x2BA01477
T4448 000:075.920   Old FW that does not support reading DPIDR via DAP jobs
T4448 000:078.782   Unknown DP version. Assuming DPv0
T4448 000:080.076   Scanning AP map to find all available APs
T4448 000:082.586   AP[1]: Stopped AP scan as end of AP map has been reached
T4448 000:083.862   AP[0]: AHB-AP (IDR: 0x24770011)
T4448 000:088.877   Iterating through AP map to find AHB-AP to use
T4448 000:096.590   AP[0]: Core found
T4448 000:100.861   AP[0]: AHB-AP ROM base: 0xE00FF000
T4448 000:109.834   CPUID register: 0x410FC241. Implementer code: 0x41 (ARM)
T4448 000:114.260   Found Cortex-M4 r0p1, Little endian.
T4448 000:216.981    -- Max. mem block: 0x00010BB0
T4448 000:217.064   CPU_ReadMem(4 bytes @ 0xE000EDF0)
T4448 000:218.609   CPU_WriteMem(4 bytes @ 0xE000EDF0)
T4448 000:219.599   CPU_ReadMem(4 bytes @ 0xE0002000)
T4448 000:232.714   FPUnit: 6 code (BP) slots and 2 literal slots
T4448 000:232.776   CPU_ReadMem(4 bytes @ 0xE000EDFC)
T4448 000:233.900   CPU_WriteMem(4 bytes @ 0xE000EDFC)
T4448 000:235.015   CPU_ReadMem(4 bytes @ 0xE0001000)
T4448 000:236.077   CPU_WriteMem(4 bytes @ 0xE0001000)
T4448 000:236.866   CPU_ReadMem(4 bytes @ 0xE000ED88)
T4448 000:237.880   CPU_WriteMem(4 bytes @ 0xE000ED88)
T4448 000:239.488   CPU_ReadMem(4 bytes @ 0xE000ED88)
T4448 000:240.074   CPU_WriteMem(4 bytes @ 0xE000ED88)
T4448 000:253.053   CoreSight components:
T4448 000:263.278   ROMTbl[0] @ E00FF000
T4448 000:263.329   CPU_ReadMem(64 bytes @ 0xE00FF000)
T4448 000:264.876   CPU_ReadMem(32 bytes @ 0xE000EFE0)
T4448 000:270.317   ROMTbl[0][0]: E000E000, CID: B105E00D, PID: 000BB00C SCS-M7
T4448 000:270.368   CPU_ReadMem(32 bytes @ 0xE0001FE0)
T4448 000:276.011   ROMTbl[0][1]: E0001000, CID: B105E00D, PID: 003BB002 DWT
T4448 000:276.080   CPU_ReadMem(32 bytes @ 0xE0002FE0)
T4448 000:282.546   ROMTbl[0][2]: E0002000, CID: B105E00D, PID: 002BB003 FPB
T4448 000:282.621   CPU_ReadMem(32 bytes @ 0xE0000FE0)
T4448 000:288.618   ROMTbl[0][3]: E0000000, CID: B105E00D, PID: 003BB001 ITM
T4448 000:288.671   CPU_ReadMem(32 bytes @ 0xE0040FE0)
T4448 000:295.317   ROMTbl[0][4]: E0040000, CID: B105900D, PID: 000BB9A1 TPIU
T4448 000:295.376   CPU_ReadMem(32 bytes @ 0xE0041FE0)
T4448 000:301.212   ROMTbl[0][5]: E0041000, CID: 00000000, PID: 00000000 ???
T4448 000:301.995 - 233.945ms   returns 0x2BA01477
T4448 000:302.055 JLINK_GetDLLVersion()  returns 67005
T4448 000:302.072 JLINK_CORE_GetFound()
T4448 000:302.085 - 0.020ms returns 0xE0000FF
T4448 000:302.240 JLINK_GetDebugInfo(0x100 = JLINKARM_ROM_TABLE_ADDR_INDEX)
T4448 000:302.277   Value=0xE00FF000
T4448 000:302.300 - 0.066ms returns 0x00
T4448 000:306.965 JLINK_GetDebugInfo(0x100 = JLINKARM_ROM_TABLE_ADDR_INDEX)
T4448 000:307.015   Value=0xE00FF000
T4448 000:307.033 - 0.074ms returns 0x00
T4448 000:307.064 JLINK_GetDebugInfo(0x101 = JLINKARM_DEBUG_INFO_ETM_ADDR_INDEX)
T4448 000:307.079   Value=0x00000000
T4448 000:307.097 - 0.038ms returns 0x00
T4448 000:307.134   JLINK_ReadMemEx(0xE0041FF0, 0x0010 Bytes, ..., Flags = 0x02000004)
T4448 000:307.181   CPU_ReadMem(16 bytes @ 0xE0041FF0)
T4448 000:308.086   Data:  00 00 00 00 00 00 00 00 00 00 00 00 00 00 00 00
T4448 000:308.124 - 1.003ms returns 0x10
T4448 000:308.143 JLINK_GetDebugInfo(0x102 = JLINKARM_DEBUG_INFO_MTB_ADDR_INDEX)
T4448 000:308.159   Value=0x00000000
T4448 000:308.177 - 0.040ms returns 0x00
T4448 000:308.191 JLINK_GetDebugInfo(0x103 = JLINKARM_DEBUG_INFO_TPIU_ADDR_INDEX)
T4448 000:308.204   Value=0xE0040000
T4448 000:308.222 - 0.036ms returns 0x00
T4448 000:308.236 JLINK_GetDebugInfo(0x104 = JLINKARM_DEBUG_INFO_ITM_ADDR_INDEX)
T4448 000:308.249   Value=0xE0000000
T4448 000:308.268 - 0.040ms returns 0x00
T4448 000:308.288 JLINK_GetDebugInfo(0x105 = JLINKARM_DEBUG_INFO_DWT_ADDR_INDEX)
T4448 000:308.310   Value=0xE0001000
T4448 000:308.336 - 0.056ms returns 0x00
T4448 000:308.357 JLINK_GetDebugInfo(0x106 = JLINKARM_DEBUG_INFO_FPB_ADDR_INDEX)
T4448 000:308.376   Value=0xE0002000
T4448 000:308.402 - 0.054ms returns 0x00
T4448 000:308.422 JLINK_GetDebugInfo(0x107 = JLINKARM_DEBUG_INFO_NVIC_ADDR_INDEX)
T4448 000:308.441   Value=0xE000E000
T4448 000:308.468 - 0.054ms returns 0x00
T4448 000:308.489 JLINK_GetDebugInfo(0x10C = JLINKARM_DEBUG_INFO_DBG_ADDR_INDEX)
T4448 000:308.508   Value=0xE000EDF0
T4448 000:308.534 - 0.054ms returns 0x00
T4448 000:308.555 JLINK_GetDebugInfo(0x01 = Unknown)
T4448 000:308.588   Value=0x00000001
T4448 000:308.615 - 0.068ms returns 0x00
T4448 000:308.644 JLINK_ReadMemU32(0xE000ED00, 0x0001 Items, ...)
T4448 000:308.678   CPU_ReadMem(4 bytes @ 0xE000ED00)
T4448 000:309.336   Data:  41 C2 0F 41
T4448 000:309.408    - CPUID
T4448 000:309.430 - 0.792ms returns 1
T4448 000:309.449 JLINK_GetDebugInfo(0x10F = JLINKARM_DEBUG_INFO_HAS_CORTEX_M_SECURITY_EXT_INDEX)
T4448 000:309.469   Value=0x00000000
T4448 000:309.492 - 0.068ms returns 0x00
T4448 000:309.546 JLINK_SetResetType(JLINKARM_CM3_RESET_TYPE_NORMAL)
T4448 000:309.599 - 0.070ms returns JLINKARM_CM3_RESET_TYPE_NORMAL
T4448 000:309.636 JLINK_Reset()
T4448 000:309.875   CPU is running
T4448 000:310.040   CPU_WriteMem(4 bytes @ 0xE000EDF0)
T4448 000:310.862   CPU is running
T4448 000:310.898   CPU_WriteMem(4 bytes @ 0xE000EDFC)
T4448 000:324.704   Reset: Halt core after reset via DEMCR.VC_CORERESET.
T4448 000:331.682   Reset: Reset device via AIRCR.SYSRESETREQ.
T4448 000:331.730   CPU is running
T4448 000:331.762   CPU_WriteMem(4 bytes @ 0xE000ED0C)
T4448 000:386.709   CPU_ReadMem(4 bytes @ 0xE000EDF0)
T4448 000:388.019   CPU_ReadMem(4 bytes @ 0xE000EDF0)
T4448 000:389.267   CPU is running
T4448 000:389.329   CPU_WriteMem(4 bytes @ 0xE000EDF0)
T4448 000:390.257   CPU is running
T4448 000:390.338   CPU_WriteMem(4 bytes @ 0xE000EDFC)
T4448 000:397.541   CPU_ReadMem(4 bytes @ 0xE000EDF0)
T4448 000:401.389   CPU_WriteMem(4 bytes @ 0xE0002000)
T4448 000:402.401   CPU_ReadMem(4 bytes @ 0xE000EDFC)
T4448 000:403.260   CPU_ReadMem(4 bytes @ 0xE0001000)
T4448 000:404.123 - 94.525ms
T4448 000:404.192 JLINK_Halt()
T4448 000:404.219 - 0.042ms returns 0x00
T4448 000:404.406 JLINK_ReadMemU32(0xE000EDF0, 0x0001 Items, ...)
T4448 000:404.466   CPU_ReadMem(4 bytes @ 0xE000EDF0)
T4448 000:405.237   Data:  03 00 03 00
T4448 000:405.298    - DHCSR
T4448 000:405.333 - 0.938ms returns 1
T4448 000:405.365 JLINK_WriteU32(0xE000EDF0, 0xA05F0003)
T4448 000:405.390    - DHCSR
T4448 000:405.436   CPU_WriteMem(4 bytes @ 0xE000EDF0)
T4448 000:406.244 - 0.911ms returns 0
T4448 000:406.357 JLINK_WriteU32(0xE000EDFC, 0x01000000)
T4448 000:406.420    - DEMCR
T4448 000:406.553   CPU_WriteMem(4 bytes @ 0xE000EDFC)
T4448 000:407.224 - 0.913ms returns 0
T4448 000:437.962 JLINK_GetHWStatus(...)
T4448 000:438.785 - 0.845ms returns 0x00
T4448 000:453.952 JLINK_GetNumBPUnits(Type = 0xFFFFFF00)
T4448 000:453.992 - 0.047ms returns 0x06
T4448 000:454.008 JLINK_GetNumBPUnits(Type = 0xF0)
T4448 000:454.021 - 0.018ms returns 0x2000
T4448 000:454.036 JLINK_GetNumWPUnits()
T4448 000:454.048 - 0.018ms returns 0x04
T4448 000:468.995 JLINK_GetSpeed()
T4448 000:469.040 - 0.051ms returns 0xFA0
T4448 000:478.865 JLINK_ReadMemU32(0xE000E004, 0x0001 Items, ...)
T4448 000:478.932   CPU_ReadMem(4 bytes @ 0xE000E004)
T4448 000:479.714   Data:  02 00 00 00
T4448 000:479.751 - 0.893ms returns 1
T4448 000:479.770 JLINK_ReadMemU32(0xE000E004, 0x0001 Items, ...)
T4448 000:479.788   CPU_ReadMem(4 bytes @ 0xE000E004)
T4448 000:480.607   Data:  02 00 00 00
T4448 000:480.657 - 0.894ms returns 1
T4448 000:480.681 JLINK_WriteMemEx(0xE0001000, 0x001C Bytes, ..., Flags = 0x02000004)
T4448 000:480.695   Data:  01 00 00 00 00 00 00 00 00 00 00 00 00 00 00 00 ...
T4448 000:481.037   CPU_WriteMem(28 bytes @ 0xE0001000)
T4448 000:481.895 - 1.248ms returns 0x1C
T4448 000:481.950 JLINK_Halt()
T4448 000:481.965 - 0.021ms returns 0x00
T4448 000:481.980 JLINK_IsHalted()
T4448 000:481.994 - 0.020ms returns TRUE
T4448 000:485.173 JLINK_WriteMem(0x20000000, 0x01B0 Bytes, ...)
T4448 000:485.199   Data:  00 BE 0A E0 0D 78 2D 06 68 40 08 24 40 00 00 D3 ...
T4448 000:485.509   CPU_WriteMem(432 bytes @ 0x20000000)
T4448 000:488.280 - 3.154ms returns 0x1B0
T4448 000:488.444 JLINK_WriteReg(R0, 0x08000000)
T4448 000:488.469 - 0.033ms returns 0x00
T4448 000:488.488 JLINK_WriteReg(R1, 0x00B71B00)
T4448 000:488.502 - 0.021ms returns 0x00
T4448 000:488.518 JLINK_WriteReg(R2, 0x00000001)
T4448 000:488.533 - 0.021ms returns 0x00
T4448 000:488.550 JLINK_WriteReg(R3, 0x00000000)
T4448 000:488.563 - 0.019ms returns 0x00
T4448 000:488.578 JLINK_WriteReg(R4, 0x00000000)
T4448 000:488.591 - 0.019ms returns 0x00
T4448 000:488.606 JLINK_WriteReg(R5, 0x00000000)
T4448 000:488.620 - 0.020ms returns 0x00
T4448 000:488.635 JLINK_WriteReg(R6, 0x00000000)
T4448 000:488.648 - 0.019ms returns 0x00
T4448 000:488.663 JLINK_WriteReg(R7, 0x00000000)
T4448 000:488.676 - 0.019ms returns 0x00
T4448 000:488.691 JLINK_WriteReg(R8, 0x00000000)
T4448 000:488.704 - 0.019ms returns 0x00
T4448 000:488.719 JLINK_WriteReg(R9, 0x200001A8)
T4448 000:488.732 - 0.019ms returns 0x00
T4448 000:488.747 JLINK_WriteReg(R10, 0x00000000)
T4448 000:488.760 - 0.019ms returns 0x00
T4448 000:488.775 JLINK_WriteReg(R11, 0x00000000)
T4448 000:488.788 - 0.019ms returns 0x00
T4448 000:488.803 JLINK_WriteReg(R12, 0x00000000)
T4448 000:488.816 - 0.019ms returns 0x00
T4448 000:488.831 JLINK_WriteReg(R13 (SP), 0x20001000)
T4448 000:488.850 - 0.025ms returns 0x00
T4448 000:488.865 JLINK_WriteReg(R14, 0x20000001)
T4448 000:488.878 - 0.020ms returns 0x00
T4448 000:488.893 JLINK_WriteReg(R15 (PC), 0x20000038)
T4448 000:488.906 - 0.019ms returns 0x00
T4448 000:488.921 JLINK_WriteReg(XPSR, 0x01000000)
T4448 000:488.934 - 0.020ms returns 0x00
T4448 000:488.949 JLINK_WriteReg(MSP, 0x20001000)
T4448 000:488.963 - 0.019ms returns 0x00
T4448 000:488.978 JLINK_WriteReg(PSP, 0x20001000)
T4448 000:488.991 - 0.023ms returns 0x00
T4448 000:489.013 JLINK_WriteReg(CFBP, 0x00000000)
T4448 000:489.027 - 0.020ms returns 0x00
T4448 000:489.044   JLINK_SetBPEx(Addr = 0x20000000, Type = 0xFFFFFFF2)
T4448 000:489.068   CPU_ReadMem(4 bytes @ 0x20000000)
T4448 000:489.736   CPU_WriteMem(4 bytes @ 0x20000000)
T4448 000:490.550   CPU_ReadMem(4 bytes @ 0x20000000)
T4448 000:491.609   CPU_WriteMem(4 bytes @ 0x20000000)
T4448 000:492.285   CPU_ReadMem(2 bytes @ 0x20000000)
T4448 000:492.981 - 4.043ms returns 0x00000001
T4448 000:493.120 JLINK_Go()
T4448 000:493.187   CPU_WriteMem(2 bytes @ 0x20000000)
T4448 000:494.470   CPU_ReadMem(4 bytes @ 0xE0001000)
T4448 000:495.168   CPU_WriteMem(4 bytes @ 0xE0002008)
T4448 000:495.199   CPU_WriteMem(4 bytes @ 0xE000200C)
T4448 000:495.218   CPU_WriteMem(4 bytes @ 0xE0002010)
T4448 000:495.237   CPU_WriteMem(4 bytes @ 0xE0002014)
T4448 000:495.256   CPU_WriteMem(4 bytes @ 0xE0002018)
T4448 000:495.275   CPU_WriteMem(4 bytes @ 0xE000201C)
T4448 000:496.915   CPU_WriteMem(4 bytes @ 0xE0001004)
T4448 000:501.067 - 7.971ms
T4448 000:501.106 JLINK_IsHalted()
T4448 000:504.792   CPU_ReadMem(2 bytes @ 0x20000000)
T4448 000:506.089 - 5.000ms returns TRUE
T4448 000:506.118 JLINK_ReadReg(R15 (PC))
T4448 000:506.133 - 0.022ms returns 0x20000000
T4448 000:506.150 JLINK_ClrBPEx(BPHandle = 0x00000001)
T4448 000:506.164 - 0.020ms returns 0x00
T4448 000:506.181 JLINK_ReadReg(R0)
T4448 000:506.194 - 0.019ms returns 0x00000000
T4448 000:506.532 JLINK_WriteReg(R0, 0x08004000)
T4448 000:506.554 - 0.029ms returns 0x00
T4448 000:506.570 JLINK_WriteReg(R1, 0x00000400)
T4448 000:506.583 - 0.019ms returns 0x00
T4448 000:506.598 JLINK_WriteReg(R2, 0x000000FF)
T4448 000:506.611 - 0.019ms returns 0x00
T4448 000:506.625 JLINK_WriteReg(R3, 0x00000000)
T4448 000:506.638 - 0.019ms returns 0x00
T4448 000:506.653 JLINK_WriteReg(R4, 0x00000000)
T4448 000:506.666 - 0.019ms returns 0x00
T4448 000:506.680 JLINK_WriteReg(R5, 0x00000000)
T4448 000:506.693 - 0.019ms returns 0x00
T4448 000:506.708 JLINK_WriteReg(R6, 0x00000000)
T4448 000:506.721 - 0.019ms returns 0x00
T4448 000:506.736 JLINK_WriteReg(R7, 0x00000000)
T4448 000:506.750 - 0.021ms returns 0x00
T4448 000:506.765 JLINK_WriteReg(R8, 0x00000000)
T4448 000:506.778 - 0.019ms returns 0x00
T4448 000:506.792 JLINK_WriteReg(R9, 0x200001A8)
T4448 000:506.805 - 0.019ms returns 0x00
T4448 000:506.820 JLINK_WriteReg(R10, 0x00000000)
T4448 000:506.832 - 0.019ms returns 0x00
T4448 000:506.847 JLINK_WriteReg(R11, 0x00000000)
T4448 000:506.860 - 0.021ms returns 0x00
T4448 000:506.877 JLINK_WriteReg(R12, 0x00000000)
T4448 000:506.890 - 0.019ms returns 0x00
T4448 000:506.907 JLINK_WriteReg(R13 (SP), 0x20001000)
T4448 000:506.921 - 0.020ms returns 0x00
T4448 000:506.936 JLINK_WriteReg(R14, 0x20000001)
T4448 000:506.948 - 0.019ms returns 0x00
T4448 000:507.111 JLINK_WriteReg(R15 (PC), 0x20000020)
T4448 000:507.134 - 0.030ms returns 0x00
T4448 000:507.150 JLINK_WriteReg(XPSR, 0x01000000)
T4448 000:507.164 - 0.020ms returns 0x00
T4448 000:507.179 JLINK_WriteReg(MSP, 0x20001000)
T4448 000:507.192 - 0.019ms returns 0x00
T4448 000:507.207 JLINK_WriteReg(PSP, 0x20001000)
T4448 000:507.220 - 0.019ms returns 0x00
T4448 000:507.235 JLINK_WriteReg(CFBP, 0x00000000)
T4448 000:507.249 - 0.019ms returns 0x00
T4448 000:507.265   JLINK_SetBPEx(Addr = 0x20000000, Type = 0xFFFFFFF2)
T4448 000:507.284 - 0.027ms returns 0x00000002
T4448 000:507.300 JLINK_Go()
T4448 000:507.319   CPU_ReadMem(4 bytes @ 0xE0001000)
T4448 000:510.819 - 3.550ms
T4448 000:510.879 JLINK_IsHalted()
T4448 000:514.029   CPU_ReadMem(2 bytes @ 0x20000000)
T4448 000:514.996 - 4.133ms returns TRUE
T4448 000:515.025 JLINK_ReadReg(R15 (PC))
T4448 000:515.042 - 0.024ms returns 0x20000000
T4448 000:515.058 JLINK_ClrBPEx(BPHandle = 0x00000002)
T4448 000:515.072 - 0.020ms returns 0x00
T4448 000:515.088 JLINK_ReadReg(R0)
T4448 000:515.101 - 0.020ms returns 0x00000001
T4448 000:515.120 JLINK_WriteReg(R0, 0x08004000)
T4448 000:515.134 - 0.020ms returns 0x00
T4448 000:515.149 JLINK_WriteReg(R1, 0x00000400)
T4448 000:515.222 - 0.080ms returns 0x00
T4448 000:515.238 JLINK_WriteReg(R2, 0x000000FF)
T4448 000:515.251 - 0.019ms returns 0x00
T4448 000:515.266 JLINK_WriteReg(R3, 0x00000000)
T4448 000:515.279 - 0.019ms returns 0x00
T4448 000:515.294 JLINK_WriteReg(R4, 0x00000000)
T4448 000:515.307 - 0.019ms returns 0x00
T4448 000:515.321 JLINK_WriteReg(R5, 0x00000000)
T4448 000:515.334 - 0.019ms returns 0x00
T4448 000:515.349 JLINK_WriteReg(R6, 0x00000000)
T4448 000:515.362 - 0.019ms returns 0x00
T4448 000:515.377 JLINK_WriteReg(R7, 0x00000000)
T4448 000:515.389 - 0.019ms returns 0x00
T4448 000:515.404 JLINK_WriteReg(R8, 0x00000000)
T4448 000:515.417 - 0.019ms returns 0x00
T4448 000:515.432 JLINK_WriteReg(R9, 0x200001A8)
T4448 000:515.445 - 0.019ms returns 0x00
T4448 000:515.459 JLINK_WriteReg(R10, 0x00000000)
T4448 000:515.472 - 0.019ms returns 0x00
T4448 000:515.487 JLINK_WriteReg(R11, 0x00000000)
T4448 000:515.500 - 0.019ms returns 0x00
T4448 000:515.514 JLINK_WriteReg(R12, 0x00000000)
T4448 000:515.527 - 0.019ms returns 0x00
T4448 000:515.542 JLINK_WriteReg(R13 (SP), 0x20001000)
T4448 000:515.555 - 0.019ms returns 0x00
T4448 000:515.570 JLINK_WriteReg(R14, 0x20000001)
T4448 000:515.583 - 0.019ms returns 0x00
T4448 000:515.597 JLINK_WriteReg(R15 (PC), 0x200000C2)
T4448 000:515.610 - 0.019ms returns 0x00
T4448 000:515.625 JLINK_WriteReg(XPSR, 0x01000000)
T4448 000:515.639 - 0.020ms returns 0x00
T4448 000:515.653 JLINK_WriteReg(MSP, 0x20001000)
T4448 000:515.666 - 0.019ms returns 0x00
T4448 000:515.681 JLINK_WriteReg(PSP, 0x20001000)
T4448 000:515.694 - 0.019ms returns 0x00
T4448 000:515.709 JLINK_WriteReg(CFBP, 0x00000000)
T4448 000:515.722 - 0.019ms returns 0x00
T4448 000:515.737   JLINK_SetBPEx(Addr = 0x20000000, Type = 0xFFFFFFF2)
T4448 000:515.756 - 0.026ms returns 0x00000003
T4448 000:515.772 JLINK_Go()
T4448 000:515.790   CPU_ReadMem(4 bytes @ 0xE0001000)
T4448 000:520.338 - 4.583ms
T4448 000:520.367 JLINK_IsHalted()
T4448 000:521.688 - 1.337ms returns FALSE
T4448 000:555.235 JLINK_IsHalted()
T4448 000:558.492   CPU_ReadMem(2 bytes @ 0x20000000)
T4448 000:559.226 - 4.097ms returns TRUE
T4448 000:559.379 JLINK_ReadReg(R15 (PC))
T4448 000:559.432 - 0.069ms returns 0x20000000
T4448 000:559.458 JLINK_ClrBPEx(BPHandle = 0x00000003)
T4448 000:559.472 - 0.020ms returns 0x00
T4448 000:559.487 JLINK_ReadReg(R0)
T4448 000:559.501 - 0.020ms returns 0x00000000
T4448 000:560.209 JLINK_WriteReg(R0, 0x08004400)
T4448 000:560.241 - 0.039ms returns 0x00
T4448 000:560.257 JLINK_WriteReg(R1, 0x00000400)
T4448 000:560.270 - 0.020ms returns 0x00
T4448 000:560.285 JLINK_WriteReg(R2, 0x000000FF)
T4448 000:560.298 - 0.019ms returns 0x00
T4448 000:560.314 JLINK_WriteReg(R3, 0x00000000)
T4448 000:560.327 - 0.019ms returns 0x00
T4448 000:560.341 JLINK_WriteReg(R4, 0x00000000)
T4448 000:560.355 - 0.020ms returns 0x00
T4448 000:560.370 JLINK_WriteReg(R5, 0x00000000)
T4448 000:560.383 - 0.019ms returns 0x00
T4448 000:560.399 JLINK_WriteReg(R6, 0x00000000)
T4448 000:560.411 - 0.019ms returns 0x00
T4448 000:560.426 JLINK_WriteReg(R7, 0x00000000)
T4448 000:560.439 - 0.019ms returns 0x00
T4448 000:560.453 JLINK_WriteReg(R8, 0x00000000)
T4448 000:560.466 - 0.019ms returns 0x00
T4448 000:560.481 JLINK_WriteReg(R9, 0x200001A8)
T4448 000:560.494 - 0.019ms returns 0x00
T4448 000:560.508 JLINK_WriteReg(R10, 0x00000000)
T4448 000:560.521 - 0.019ms returns 0x00
T4448 000:560.536 JLINK_WriteReg(R11, 0x00000000)
T4448 000:560.549 - 0.019ms returns 0x00
T4448 000:560.564 JLINK_WriteReg(R12, 0x00000000)
T4448 000:560.577 - 0.019ms returns 0x00
T4448 000:560.592 JLINK_WriteReg(R13 (SP), 0x20001000)
T4448 000:560.605 - 0.020ms returns 0x00
T4448 000:560.620 JLINK_WriteReg(R14, 0x20000001)
T4448 000:560.633 - 0.019ms returns 0x00
T4448 000:560.648 JLINK_WriteReg(R15 (PC), 0x20000020)
T4448 000:560.661 - 0.019ms returns 0x00
T4448 000:560.675 JLINK_WriteReg(XPSR, 0x01000000)
T4448 000:560.688 - 0.019ms returns 0x00
T4448 000:560.703 JLINK_WriteReg(MSP, 0x20001000)
T4448 000:560.720 - 0.027ms returns 0x00
T4448 000:560.739 JLINK_WriteReg(PSP, 0x20001000)
T4448 000:560.753 - 0.019ms returns 0x00
T4448 000:560.767 JLINK_WriteReg(CFBP, 0x00000000)
T4448 000:560.781 - 0.019ms returns 0x00
T4448 000:560.796   JLINK_SetBPEx(Addr = 0x20000000, Type = 0xFFFFFFF2)
T4448 000:560.816 - 0.027ms returns 0x00000004
T4448 000:560.831 JLINK_Go()
T4448 000:560.853   CPU_ReadMem(4 bytes @ 0xE0001000)
T4448 000:565.616 - 4.803ms
T4448 000:565.647 JLINK_IsHalted()
T4448 000:569.249   CPU_ReadMem(2 bytes @ 0x20000000)
T4448 000:570.221 - 4.590ms returns TRUE
T4448 000:570.250 JLINK_ReadReg(R15 (PC))
T4448 000:570.266 - 0.023ms returns 0x20000000
T4448 000:570.282 JLINK_ClrBPEx(BPHandle = 0x00000004)
T4448 000:570.295 - 0.020ms returns 0x00
T4448 000:570.311 JLINK_ReadReg(R0)
T4448 000:570.324 - 0.020ms returns 0x00000001
T4448 000:570.343 JLINK_WriteReg(R0, 0x08004400)
T4448 000:570.357 - 0.020ms returns 0x00
T4448 000:570.372 JLINK_WriteReg(R1, 0x00000400)
T4448 000:570.385 - 0.019ms returns 0x00
T4448 000:570.400 JLINK_WriteReg(R2, 0x000000FF)
T4448 000:570.413 - 0.019ms returns 0x00
T4448 000:570.428 JLINK_WriteReg(R3, 0x00000000)
T4448 000:570.440 - 0.019ms returns 0x00
T4448 000:570.455 JLINK_WriteReg(R4, 0x00000000)
T4448 000:570.468 - 0.019ms returns 0x00
T4448 000:570.482 JLINK_WriteReg(R5, 0x00000000)
T4448 000:570.495 - 0.019ms returns 0x00
T4448 000:570.510 JLINK_WriteReg(R6, 0x00000000)
T4448 000:570.522 - 0.019ms returns 0x00
T4448 000:570.537 JLINK_WriteReg(R7, 0x00000000)
T4448 000:570.549 - 0.019ms returns 0x00
T4448 000:570.564 JLINK_WriteReg(R8, 0x00000000)
T4448 000:570.577 - 0.019ms returns 0x00
T4448 000:570.591 JLINK_WriteReg(R9, 0x200001A8)
T4448 000:570.604 - 0.019ms returns 0x00
T4448 000:570.619 JLINK_WriteReg(R10, 0x00000000)
T4448 000:570.632 - 0.019ms returns 0x00
T4448 000:570.646 JLINK_WriteReg(R11, 0x00000000)
T4448 000:570.659 - 0.019ms returns 0x00
T4448 000:570.674 JLINK_WriteReg(R12, 0x00000000)
T4448 000:570.686 - 0.019ms returns 0x00
T4448 000:570.701 JLINK_WriteReg(R13 (SP), 0x20001000)
T4448 000:570.714 - 0.019ms returns 0x00
T4448 000:570.729 JLINK_WriteReg(R14, 0x20000001)
T4448 000:570.742 - 0.019ms returns 0x00
T4448 000:570.756 JLINK_WriteReg(R15 (PC), 0x200000C2)
T4448 000:570.769 - 0.019ms returns 0x00
T4448 000:570.784 JLINK_WriteReg(XPSR, 0x01000000)
T4448 000:570.797 - 0.019ms returns 0x00
T4448 000:570.811 JLINK_WriteReg(MSP, 0x20001000)
T4448 000:570.824 - 0.019ms returns 0x00
T4448 000:570.838 JLINK_WriteReg(PSP, 0x20001000)
T4448 000:570.857 - 0.025ms returns 0x00
T4448 000:570.872 JLINK_WriteReg(CFBP, 0x00000000)
T4448 000:570.885 - 0.019ms returns 0x00
T4448 000:570.900   JLINK_SetBPEx(Addr = 0x20000000, Type = 0xFFFFFFF2)
T4448 000:570.919 - 0.026ms returns 0x00000005
T4448 000:570.934 JLINK_Go()
T4448 000:570.952   CPU_ReadMem(4 bytes @ 0xE0001000)
T4448 000:574.839 - 3.931ms
T4448 000:574.885 JLINK_IsHalted()
T4448 000:575.525 - 0.657ms returns FALSE
T4448 000:578.166 JLINK_IsHalted()
T4448 000:582.078   CPU_ReadMem(2 bytes @ 0x20000000)
T4448 000:582.896 - 4.748ms returns TRUE
T4448 000:582.926 JLINK_ReadReg(R15 (PC))
T4448 000:582.943 - 0.024ms returns 0x20000000
T4448 000:582.959 JLINK_ClrBPEx(BPHandle = 0x00000005)
T4448 000:582.973 - 0.020ms returns 0x00
T4448 000:582.989 JLINK_ReadReg(R0)
T4448 000:583.002 - 0.020ms returns 0x00000000
T4448 000:583.541 JLINK_WriteReg(R0, 0x08004800)
T4448 000:583.564 - 0.030ms returns 0x00
T4448 000:583.580 JLINK_WriteReg(R1, 0x00000400)
T4448 000:583.593 - 0.019ms returns 0x00
T4448 000:583.608 JLINK_WriteReg(R2, 0x000000FF)
T4448 000:583.621 - 0.019ms returns 0x00
T4448 000:583.635 JLINK_WriteReg(R3, 0x00000000)
T4448 000:583.648 - 0.019ms returns 0x00
T4448 000:583.663 JLINK_WriteReg(R4, 0x00000000)
T4448 000:583.675 - 0.019ms returns 0x00
T4448 000:583.690 JLINK_WriteReg(R5, 0x00000000)
T4448 000:583.703 - 0.019ms returns 0x00
T4448 000:583.717 JLINK_WriteReg(R6, 0x00000000)
T4448 000:583.731 - 0.019ms returns 0x00
T4448 000:583.749 JLINK_WriteReg(R7, 0x00000000)
T4448 000:583.766 - 0.023ms returns 0x00
T4448 000:583.781 JLINK_WriteReg(R8, 0x00000000)
T4448 000:583.794 - 0.019ms returns 0x00
T4448 000:583.808 JLINK_WriteReg(R9, 0x200001A8)
T4448 000:583.821 - 0.019ms returns 0x00
T4448 000:583.835 JLINK_WriteReg(R10, 0x00000000)
T4448 000:583.848 - 0.019ms returns 0x00
T4448 000:583.865 JLINK_WriteReg(R11, 0x00000000)
T4448 000:583.878 - 0.019ms returns 0x00
T4448 000:583.893 JLINK_WriteReg(R12, 0x00000000)
T4448 000:583.906 - 0.019ms returns 0x00
T4448 000:583.920 JLINK_WriteReg(R13 (SP), 0x20001000)
T4448 000:583.934 - 0.019ms returns 0x00
T4448 000:583.949 JLINK_WriteReg(R14, 0x20000001)
T4448 000:583.961 - 0.019ms returns 0x00
T4448 000:583.976 JLINK_WriteReg(R15 (PC), 0x20000020)
T4448 000:583.989 - 0.019ms returns 0x00
T4448 000:584.004 JLINK_WriteReg(XPSR, 0x01000000)
T4448 000:584.017 - 0.019ms returns 0x00
T4448 000:584.031 JLINK_WriteReg(MSP, 0x20001000)
T4448 000:584.044 - 0.019ms returns 0x00
T4448 000:584.059 JLINK_WriteReg(PSP, 0x20001000)
T4448 000:584.071 - 0.019ms returns 0x00
T4448 000:584.086 JLINK_WriteReg(CFBP, 0x00000000)
T4448 000:584.099 - 0.019ms returns 0x00
T4448 000:584.115   JLINK_SetBPEx(Addr = 0x20000000, Type = 0xFFFFFFF2)
T4448 000:584.134 - 0.026ms returns 0x00000006
T4448 000:584.149 JLINK_Go()
T4448 000:584.169   CPU_ReadMem(4 bytes @ 0xE0001000)
T4448 000:588.777 - 4.645ms
T4448 000:588.814 JLINK_IsHalted()
T4448 000:591.767   CPU_ReadMem(2 bytes @ 0x20000000)
T4448 000:592.425 - 3.625ms returns TRUE
T4448 000:592.454 JLINK_ReadReg(R15 (PC))
T4448 000:592.470 - 0.023ms returns 0x20000000
T4448 000:592.487 JLINK_ClrBPEx(BPHandle = 0x00000006)
T4448 000:592.501 - 0.020ms returns 0x00
T4448 000:592.518 JLINK_ReadReg(R0)
T4448 000:592.531 - 0.020ms returns 0x00000001
T4448 000:592.551 JLINK_WriteReg(R0, 0x08004800)
T4448 000:592.565 - 0.020ms returns 0x00
T4448 000:592.580 JLINK_WriteReg(R1, 0x00000400)
T4448 000:592.593 - 0.019ms returns 0x00
T4448 000:592.609 JLINK_WriteReg(R2, 0x000000FF)
T4448 000:592.622 - 0.019ms returns 0x00
T4448 000:592.638 JLINK_WriteReg(R3, 0x00000000)
T4448 000:592.651 - 0.019ms returns 0x00
T4448 000:592.666 JLINK_WriteReg(R4, 0x00000000)
T4448 000:592.679 - 0.019ms returns 0x00
T4448 000:592.785 JLINK_WriteReg(R5, 0x00000000)
T4448 000:592.810 - 0.032ms returns 0x00
T4448 000:592.826 JLINK_WriteReg(R6, 0x00000000)
T4448 000:592.839 - 0.019ms returns 0x00
T4448 000:592.854 JLINK_WriteReg(R7, 0x00000000)
T4448 000:592.894 - 0.047ms returns 0x00
T4448 000:592.910 JLINK_WriteReg(R8, 0x00000000)
T4448 000:592.925 - 0.021ms returns 0x00
T4448 000:592.953 JLINK_WriteReg(R9, 0x200001A8)
T4448 000:593.005 - 0.106ms returns 0x00
T4448 000:593.073 JLINK_WriteReg(R10, 0x00000000)
T4448 000:593.094 - 0.032ms returns 0x00
T4448 000:593.117 JLINK_WriteReg(R11, 0x00000000)
T4448 000:593.137 - 0.045ms returns 0x00
T4448 000:593.175 JLINK_WriteReg(R12, 0x00000000)
T4448 000:593.194 - 0.027ms returns 0x00
T4448 000:593.213 JLINK_WriteReg(R13 (SP), 0x20001000)
T4448 000:593.232 - 0.027ms returns 0x00
T4448 000:593.249 JLINK_WriteReg(R14, 0x20000001)
T4448 000:593.262 - 0.019ms returns 0x00
T4448 000:593.277 JLINK_WriteReg(R15 (PC), 0x200000C2)
T4448 000:593.290 - 0.019ms returns 0x00
T4448 000:593.304 JLINK_WriteReg(XPSR, 0x01000000)
T4448 000:593.317 - 0.019ms returns 0x00
T4448 000:593.332 JLINK_WriteReg(MSP, 0x20001000)
T4448 000:593.345 - 0.019ms returns 0x00
T4448 000:593.360 JLINK_WriteReg(PSP, 0x20001000)
T4448 000:593.372 - 0.019ms returns 0x00
T4448 000:593.387 JLINK_WriteReg(CFBP, 0x00000000)
T4448 000:593.400 - 0.019ms returns 0x00
T4448 000:593.416   JLINK_SetBPEx(Addr = 0x20000000, Type = 0xFFFFFFF2)
T4448 000:593.436 - 0.027ms returns 0x00000007
T4448 000:593.451 JLINK_Go()
T4448 000:593.472   CPU_ReadMem(4 bytes @ 0xE0001000)
T4448 000:597.560 - 4.123ms
T4448 000:597.586 JLINK_IsHalted()
T4448 000:598.597 - 1.024ms returns FALSE
T4448 000:604.875 JLINK_IsHalted()
T4448 000:607.849   CPU_ReadMem(2 bytes @ 0x20000000)
T4448 000:608.455 - 3.597ms returns TRUE
T4448 000:608.483 JLINK_ReadReg(R15 (PC))
T4448 000:608.500 - 0.023ms returns 0x20000000
T4448 000:608.516 JLINK_ClrBPEx(BPHandle = 0x00000007)
T4448 000:608.531 - 0.021ms returns 0x00
T4448 000:608.547 JLINK_ReadReg(R0)
T4448 000:608.561 - 0.020ms returns 0x00000000
T4448 000:609.128 JLINK_WriteReg(R0, 0x08004C00)
T4448 000:609.154 - 0.032ms returns 0x00
T4448 000:609.169 JLINK_WriteReg(R1, 0x00000400)
T4448 000:609.183 - 0.019ms returns 0x00
T4448 000:609.198 JLINK_WriteReg(R2, 0x000000FF)
T4448 000:609.210 - 0.019ms returns 0x00
T4448 000:609.225 JLINK_WriteReg(R3, 0x00000000)
T4448 000:609.238 - 0.019ms returns 0x00
T4448 000:609.253 JLINK_WriteReg(R4, 0x00000000)
T4448 000:609.266 - 0.019ms returns 0x00
T4448 000:609.280 JLINK_WriteReg(R5, 0x00000000)
T4448 000:609.293 - 0.019ms returns 0x00
T4448 000:609.308 JLINK_WriteReg(R6, 0x00000000)
T4448 000:609.321 - 0.019ms returns 0x00
T4448 000:609.335 JLINK_WriteReg(R7, 0x00000000)
T4448 000:609.348 - 0.019ms returns 0x00
T4448 000:609.363 JLINK_WriteReg(R8, 0x00000000)
T4448 000:609.375 - 0.019ms returns 0x00
T4448 000:609.390 JLINK_WriteReg(R9, 0x200001A8)
T4448 000:609.403 - 0.019ms returns 0x00
T4448 000:609.417 JLINK_WriteReg(R10, 0x00000000)
T4448 000:609.430 - 0.019ms returns 0x00
T4448 000:609.445 JLINK_WriteReg(R11, 0x00000000)
T4448 000:609.458 - 0.019ms returns 0x00
T4448 000:609.472 JLINK_WriteReg(R12, 0x00000000)
T4448 000:609.485 - 0.019ms returns 0x00
T4448 000:609.500 JLINK_WriteReg(R13 (SP), 0x20001000)
T4448 000:609.513 - 0.019ms returns 0x00
T4448 000:609.528 JLINK_WriteReg(R14, 0x20000001)
T4448 000:609.541 - 0.019ms returns 0x00
T4448 000:609.556 JLINK_WriteReg(R15 (PC), 0x20000020)
T4448 000:609.568 - 0.019ms returns 0x00
T4448 000:609.583 JLINK_WriteReg(XPSR, 0x01000000)
T4448 000:609.596 - 0.019ms returns 0x00
T4448 000:609.611 JLINK_WriteReg(MSP, 0x20001000)
T4448 000:609.623 - 0.019ms returns 0x00
T4448 000:609.638 JLINK_WriteReg(PSP, 0x20001000)
T4448 000:609.651 - 0.019ms returns 0x00
T4448 000:609.666 JLINK_WriteReg(CFBP, 0x00000000)
T4448 000:609.678 - 0.019ms returns 0x00
T4448 000:609.694   JLINK_SetBPEx(Addr = 0x20000000, Type = 0xFFFFFFF2)
T4448 000:609.716 - 0.029ms returns 0x00000008
T4448 000:609.731 JLINK_Go()
T4448 000:609.753   CPU_ReadMem(4 bytes @ 0xE0001000)
T4448 000:613.518 - 3.808ms
T4448 000:613.552 JLINK_IsHalted()
T4448 000:616.713   CPU_ReadMem(2 bytes @ 0x20000000)
T4448 000:617.340 - 3.809ms returns TRUE
T4448 000:617.375 JLINK_ReadReg(R15 (PC))
T4448 000:617.392 - 0.024ms returns 0x20000000
T4448 000:617.408 JLINK_ClrBPEx(BPHandle = 0x00000008)
T4448 000:617.422 - 0.021ms returns 0x00
T4448 000:617.438 JLINK_ReadReg(R0)
T4448 000:617.451 - 0.020ms returns 0x00000001
T4448 000:617.470 JLINK_WriteReg(R0, 0x08004C00)
T4448 000:617.486 - 0.022ms returns 0x00
T4448 000:617.501 JLINK_WriteReg(R1, 0x00000400)
T4448 000:617.514 - 0.020ms returns 0x00
T4448 000:617.529 JLINK_WriteReg(R2, 0x000000FF)
T4448 000:617.543 - 0.019ms returns 0x00
T4448 000:617.558 JLINK_WriteReg(R3, 0x00000000)
T4448 000:617.571 - 0.019ms returns 0x00
T4448 000:617.586 JLINK_WriteReg(R4, 0x00000000)
T4448 000:617.599 - 0.020ms returns 0x00
T4448 000:617.614 JLINK_WriteReg(R5, 0x00000000)
T4448 000:617.628 - 0.020ms returns 0x00
T4448 000:617.643 JLINK_WriteReg(R6, 0x00000000)
T4448 000:617.656 - 0.020ms returns 0x00
T4448 000:617.671 JLINK_WriteReg(R7, 0x00000000)
T4448 000:617.684 - 0.019ms returns 0x00
T4448 000:617.699 JLINK_WriteReg(R8, 0x00000000)
T4448 000:617.713 - 0.019ms returns 0x00
T4448 000:617.728 JLINK_WriteReg(R9, 0x200001A8)
T4448 000:617.758 - 0.037ms returns 0x00
T4448 000:617.774 JLINK_WriteReg(R10, 0x00000000)
T4448 000:617.805 - 0.043ms returns 0x00
T4448 000:617.830 JLINK_WriteReg(R11, 0x00000000)
T4448 000:617.845 - 0.021ms returns 0x00
T4448 000:617.862 JLINK_WriteReg(R12, 0x00000000)
T4448 000:617.892 - 0.036ms returns 0x00
T4448 000:617.909 JLINK_WriteReg(R13 (SP), 0x20001000)
T4448 000:617.972 - 0.073ms returns 0x00
T4448 000:617.994 JLINK_WriteReg(R14, 0x20000001)
T4448 000:618.007 - 0.020ms returns 0x00
T4448 000:618.022 JLINK_WriteReg(R15 (PC), 0x200000C2)
T4448 000:618.035 - 0.019ms returns 0x00
T4448 000:618.052 JLINK_WriteReg(XPSR, 0x01000000)
T4448 000:618.065 - 0.020ms returns 0x00
T4448 000:618.080 JLINK_WriteReg(MSP, 0x20001000)
T4448 000:618.093 - 0.019ms returns 0x00
T4448 000:618.109 JLINK_WriteReg(PSP, 0x20001000)
T4448 000:618.122 - 0.019ms returns 0x00
T4448 000:618.137 JLINK_WriteReg(CFBP, 0x00000000)
T4448 000:618.150 - 0.019ms returns 0x00
T4448 000:618.166   JLINK_SetBPEx(Addr = 0x20000000, Type = 0xFFFFFFF2)
T4448 000:618.186 - 0.027ms returns 0x00000009
T4448 000:618.201 JLINK_Go()
T4448 000:618.222   CPU_ReadMem(4 bytes @ 0xE0001000)
T4448 000:621.238 - 3.052ms
T4448 000:621.268 JLINK_IsHalted()
T4448 000:621.881 - 0.629ms returns FALSE
T4448 000:625.804 JLINK_IsHalted()
T4448 000:628.854   CPU_ReadMem(2 bytes @ 0x20000000)
T4448 000:629.789 - 4.000ms returns TRUE
T4448 000:629.818 JLINK_ReadReg(R15 (PC))
T4448 000:629.835 - 0.023ms returns 0x20000000
T4448 000:629.851 JLINK_ClrBPEx(BPHandle = 0x00000009)
T4448 000:629.865 - 0.020ms returns 0x00
T4448 000:629.880 JLINK_ReadReg(R0)
T4448 000:629.894 - 0.020ms returns 0x00000000
T4448 000:630.443 JLINK_WriteReg(R0, 0x08005000)
T4448 000:630.466 - 0.030ms returns 0x00
T4448 000:630.482 JLINK_WriteReg(R1, 0x00000400)
T4448 000:630.495 - 0.020ms returns 0x00
T4448 000:630.510 JLINK_WriteReg(R2, 0x000000FF)
T4448 000:630.523 - 0.019ms returns 0x00
T4448 000:630.538 JLINK_WriteReg(R3, 0x00000000)
T4448 000:630.551 - 0.019ms returns 0x00
T4448 000:630.566 JLINK_WriteReg(R4, 0x00000000)
T4448 000:630.579 - 0.019ms returns 0x00
T4448 000:630.593 JLINK_WriteReg(R5, 0x00000000)
T4448 000:630.606 - 0.019ms returns 0x00
T4448 000:630.621 JLINK_WriteReg(R6, 0x00000000)
T4448 000:630.634 - 0.019ms returns 0x00
T4448 000:630.648 JLINK_WriteReg(R7, 0x00000000)
T4448 000:630.661 - 0.019ms returns 0x00
T4448 000:630.675 JLINK_WriteReg(R8, 0x00000000)
T4448 000:630.688 - 0.019ms returns 0x00
T4448 000:630.703 JLINK_WriteReg(R9, 0x200001A8)
T4448 000:630.716 - 0.019ms returns 0x00
T4448 000:630.730 JLINK_WriteReg(R10, 0x00000000)
T4448 000:630.743 - 0.019ms returns 0x00
T4448 000:630.758 JLINK_WriteReg(R11, 0x00000000)
T4448 000:630.771 - 0.019ms returns 0x00
T4448 000:630.785 JLINK_WriteReg(R12, 0x00000000)
T4448 000:630.800 - 0.021ms returns 0x00
T4448 000:630.815 JLINK_WriteReg(R13 (SP), 0x20001000)
T4448 000:630.829 - 0.020ms returns 0x00
T4448 000:630.844 JLINK_WriteReg(R14, 0x20000001)
T4448 000:630.857 - 0.019ms returns 0x00
T4448 000:630.871 JLINK_WriteReg(R15 (PC), 0x20000020)
T4448 000:630.884 - 0.019ms returns 0x00
T4448 000:630.899 JLINK_WriteReg(XPSR, 0x01000000)
T4448 000:630.912 - 0.019ms returns 0x00
T4448 000:630.926 JLINK_WriteReg(MSP, 0x20001000)
T4448 000:630.939 - 0.019ms returns 0x00
T4448 000:630.953 JLINK_WriteReg(PSP, 0x20001000)
T4448 000:630.966 - 0.019ms returns 0x00
T4448 000:630.981 JLINK_WriteReg(CFBP, 0x00000000)
T4448 000:630.995 - 0.020ms returns 0x00
T4448 000:631.011   JLINK_SetBPEx(Addr = 0x20000000, Type = 0xFFFFFFF2)
T4448 000:631.030 - 0.026ms returns 0x0000000A
T4448 000:631.045 JLINK_Go()
T4448 000:631.065   CPU_ReadMem(4 bytes @ 0xE0001000)
T4448 000:635.478 - 4.451ms
T4448 000:635.509 JLINK_IsHalted()
T4448 000:638.988   CPU_ReadMem(2 bytes @ 0x20000000)
T4448 000:640.025 - 4.532ms returns TRUE
T4448 000:640.053 JLINK_ReadReg(R15 (PC))
T4448 000:640.069 - 0.023ms returns 0x20000000
T4448 000:640.085 JLINK_ClrBPEx(BPHandle = 0x0000000A)
T4448 000:640.100 - 0.021ms returns 0x00
T4448 000:640.116 JLINK_ReadReg(R0)
T4448 000:640.129 - 0.019ms returns 0x00000001
T4448 000:640.147 JLINK_WriteReg(R0, 0x08005000)
T4448 000:640.161 - 0.020ms returns 0x00
T4448 000:640.176 JLINK_WriteReg(R1, 0x00000400)
T4448 000:640.190 - 0.019ms returns 0x00
T4448 000:640.205 JLINK_WriteReg(R2, 0x000000FF)
T4448 000:640.218 - 0.022ms returns 0x00
T4448 000:640.239 JLINK_WriteReg(R3, 0x00000000)
T4448 000:640.252 - 0.020ms returns 0x00
T4448 000:640.267 JLINK_WriteReg(R4, 0x00000000)
T4448 000:640.280 - 0.019ms returns 0x00
T4448 000:640.295 JLINK_WriteReg(R5, 0x00000000)
T4448 000:640.308 - 0.019ms returns 0x00
T4448 000:640.323 JLINK_WriteReg(R6, 0x00000000)
T4448 000:640.336 - 0.019ms returns 0x00
T4448 000:640.351 JLINK_WriteReg(R7, 0x00000000)
T4448 000:640.363 - 0.019ms returns 0x00
T4448 000:640.378 JLINK_WriteReg(R8, 0x00000000)
T4448 000:640.391 - 0.019ms returns 0x00
T4448 000:640.406 JLINK_WriteReg(R9, 0x200001A8)
T4448 000:640.419 - 0.019ms returns 0x00
T4448 000:640.434 JLINK_WriteReg(R10, 0x00000000)
T4448 000:640.447 - 0.019ms returns 0x00
T4448 000:640.462 JLINK_WriteReg(R11, 0x00000000)
T4448 000:640.475 - 0.019ms returns 0x00
T4448 000:640.489 JLINK_WriteReg(R12, 0x00000000)
T4448 000:640.502 - 0.019ms returns 0x00
T4448 000:640.517 JLINK_WriteReg(R13 (SP), 0x20001000)
T4448 000:640.531 - 0.020ms returns 0x00
T4448 000:640.546 JLINK_WriteReg(R14, 0x20000001)
T4448 000:640.559 - 0.019ms returns 0x00
T4448 000:640.574 JLINK_WriteReg(R15 (PC), 0x200000C2)
T4448 000:640.587 - 0.019ms returns 0x00
T4448 000:640.602 JLINK_WriteReg(XPSR, 0x01000000)
T4448 000:640.615 - 0.019ms returns 0x00
T4448 000:640.630 JLINK_WriteReg(MSP, 0x20001000)
T4448 000:640.643 - 0.019ms returns 0x00
T4448 000:640.657 JLINK_WriteReg(PSP, 0x20001000)
T4448 000:640.670 - 0.019ms returns 0x00
T4448 000:640.685 JLINK_WriteReg(CFBP, 0x00000000)
T4448 000:640.698 - 0.019ms returns 0x00
T4448 000:640.714   JLINK_SetBPEx(Addr = 0x20000000, Type = 0xFFFFFFF2)
T4448 000:640.733 - 0.026ms returns 0x0000000B
T4448 000:640.749 JLINK_Go()
T4448 000:640.767   CPU_ReadMem(4 bytes @ 0xE0001000)
T4448 000:645.324 - 4.602ms
T4448 000:645.364 JLINK_IsHalted()
T4448 000:646.384 - 1.037ms returns FALSE
T4448 000:650.649 JLINK_IsHalted()
T4448 000:653.729   CPU_ReadMem(2 bytes @ 0x20000000)
T4448 000:654.677 - 4.042ms returns TRUE
T4448 000:654.705 JLINK_ReadReg(R15 (PC))
T4448 000:654.723 - 0.025ms returns 0x20000000
T4448 000:654.739 JLINK_ClrBPEx(BPHandle = 0x0000000B)
T4448 000:654.753 - 0.021ms returns 0x00
T4448 000:654.769 JLINK_ReadReg(R0)
T4448 000:654.782 - 0.020ms returns 0x00000000
T4448 000:655.344 JLINK_WriteReg(R0, 0x08005400)
T4448 000:655.372 - 0.035ms returns 0x00
T4448 000:655.388 JLINK_WriteReg(R1, 0x00000400)
T4448 000:655.401 - 0.019ms returns 0x00
T4448 000:655.416 JLINK_WriteReg(R2, 0x000000FF)
T4448 000:655.429 - 0.019ms returns 0x00
T4448 000:655.444 JLINK_WriteReg(R3, 0x00000000)
T4448 000:655.457 - 0.019ms returns 0x00
T4448 000:655.472 JLINK_WriteReg(R4, 0x00000000)
T4448 000:655.485 - 0.019ms returns 0x00
T4448 000:655.500 JLINK_WriteReg(R5, 0x00000000)
T4448 000:655.516 - 0.023ms returns 0x00
T4448 000:655.531 JLINK_WriteReg(R6, 0x00000000)
T4448 000:655.544 - 0.019ms returns 0x00
T4448 000:655.558 JLINK_WriteReg(R7, 0x00000000)
T4448 000:655.571 - 0.019ms returns 0x00
T4448 000:655.586 JLINK_WriteReg(R8, 0x00000000)
T4448 000:655.598 - 0.019ms returns 0x00
T4448 000:655.613 JLINK_WriteReg(R9, 0x200001A8)
T4448 000:655.626 - 0.019ms returns 0x00
T4448 000:655.641 JLINK_WriteReg(R10, 0x00000000)
T4448 000:655.654 - 0.019ms returns 0x00
T4448 000:655.668 JLINK_WriteReg(R11, 0x00000000)
T4448 000:655.681 - 0.019ms returns 0x00
T4448 000:655.696 JLINK_WriteReg(R12, 0x00000000)
T4448 000:655.709 - 0.019ms returns 0x00
T4448 000:655.724 JLINK_WriteReg(R13 (SP), 0x20001000)
T4448 000:655.737 - 0.019ms returns 0x00
T4448 000:655.752 JLINK_WriteReg(R14, 0x20000001)
T4448 000:655.765 - 0.020ms returns 0x00
T4448 000:655.780 JLINK_WriteReg(R15 (PC), 0x20000020)
T4448 000:655.793 - 0.019ms returns 0x00
T4448 000:655.808 JLINK_WriteReg(XPSR, 0x01000000)
T4448 000:655.821 - 0.019ms returns 0x00
T4448 000:655.835 JLINK_WriteReg(MSP, 0x20001000)
T4448 000:655.848 - 0.019ms returns 0x00
T4448 000:655.863 JLINK_WriteReg(PSP, 0x20001000)
T4448 000:655.876 - 0.019ms returns 0x00
T4448 000:655.894 JLINK_WriteReg(CFBP, 0x00000000)
T4448 000:655.911 - 0.023ms returns 0x00
T4448 000:655.926   JLINK_SetBPEx(Addr = 0x20000000, Type = 0xFFFFFFF2)
T4448 000:655.946 - 0.026ms returns 0x0000000C
T4448 000:655.962 JLINK_Go()
T4448 000:655.981   CPU_ReadMem(4 bytes @ 0xE0001000)
T4448 000:660.809 - 4.867ms
T4448 000:660.842 JLINK_IsHalted()
T4448 000:664.496   CPU_ReadMem(2 bytes @ 0x20000000)
T4448 000:665.433 - 4.607ms returns TRUE
T4448 000:665.462 JLINK_ReadReg(R15 (PC))
T4448 000:665.478 - 0.023ms returns 0x20000000
T4448 000:665.494 JLINK_ClrBPEx(BPHandle = 0x0000000C)
T4448 000:665.509 - 0.021ms returns 0x00
T4448 000:665.525 JLINK_ReadReg(R0)
T4448 000:665.538 - 0.020ms returns 0x00000001
T4448 000:665.557 JLINK_WriteReg(R0, 0x08005400)
T4448 000:665.571 - 0.020ms returns 0x00
T4448 000:665.585 JLINK_WriteReg(R1, 0x00000400)
T4448 000:665.598 - 0.019ms returns 0x00
T4448 000:665.613 JLINK_WriteReg(R2, 0x000000FF)
T4448 000:665.626 - 0.019ms returns 0x00
T4448 000:665.640 JLINK_WriteReg(R3, 0x00000000)
T4448 000:665.653 - 0.019ms returns 0x00
T4448 000:665.668 JLINK_WriteReg(R4, 0x00000000)
T4448 000:665.681 - 0.019ms returns 0x00
T4448 000:665.696 JLINK_WriteReg(R5, 0x00000000)
T4448 000:665.708 - 0.019ms returns 0x00
T4448 000:665.723 JLINK_WriteReg(R6, 0x00000000)
T4448 000:665.736 - 0.019ms returns 0x00
T4448 000:665.751 JLINK_WriteReg(R7, 0x00000000)
T4448 000:665.763 - 0.019ms returns 0x00
T4448 000:665.778 JLINK_WriteReg(R8, 0x00000000)
T4448 000:665.791 - 0.019ms returns 0x00
T4448 000:665.805 JLINK_WriteReg(R9, 0x200001A8)
T4448 000:665.818 - 0.019ms returns 0x00
T4448 000:665.833 JLINK_WriteReg(R10, 0x00000000)
T4448 000:665.846 - 0.019ms returns 0x00
T4448 000:665.861 JLINK_WriteReg(R11, 0x00000000)
T4448 000:665.874 - 0.019ms returns 0x00
T4448 000:665.888 JLINK_WriteReg(R12, 0x00000000)
T4448 000:665.901 - 0.019ms returns 0x00
T4448 000:665.916 JLINK_WriteReg(R13 (SP), 0x20001000)
T4448 000:665.929 - 0.019ms returns 0x00
T4448 000:665.944 JLINK_WriteReg(R14, 0x20000001)
T4448 000:665.957 - 0.019ms returns 0x00
T4448 000:665.971 JLINK_WriteReg(R15 (PC), 0x200000C2)
T4448 000:665.984 - 0.019ms returns 0x00
T4448 000:665.999 JLINK_WriteReg(XPSR, 0x01000000)
T4448 000:666.012 - 0.019ms returns 0x00
T4448 000:666.027 JLINK_WriteReg(MSP, 0x20001000)
T4448 000:666.040 - 0.019ms returns 0x00
T4448 000:666.054 JLINK_WriteReg(PSP, 0x20001000)
T4448 000:666.067 - 0.019ms returns 0x00
T4448 000:666.082 JLINK_WriteReg(CFBP, 0x00000000)
T4448 000:666.095 - 0.019ms returns 0x00
T4448 000:666.110   JLINK_SetBPEx(Addr = 0x20000000, Type = 0xFFFFFFF2)
T4448 000:666.129 - 0.026ms returns 0x0000000D
T4448 000:666.145 JLINK_Go()
T4448 000:666.163   CPU_ReadMem(4 bytes @ 0xE0001000)
T4448 000:671.003 - 4.872ms
T4448 000:671.028 JLINK_IsHalted()
T4448 000:672.457 - 1.447ms returns FALSE
T4448 000:677.536 JLINK_IsHalted()
T4448 000:680.314   CPU_ReadMem(2 bytes @ 0x20000000)
T4448 000:680.934 - 3.415ms returns TRUE
T4448 000:680.970 JLINK_ReadReg(R15 (PC))
T4448 000:680.987 - 0.023ms returns 0x20000000
T4448 000:681.003 JLINK_ClrBPEx(BPHandle = 0x0000000D)
T4448 000:681.017 - 0.020ms returns 0x00
T4448 000:681.033 JLINK_ReadReg(R0)
T4448 000:681.046 - 0.020ms returns 0x00000000
T4448 000:681.602 JLINK_WriteReg(R0, 0x08005800)
T4448 000:681.625 - 0.030ms returns 0x00
T4448 000:681.641 JLINK_WriteReg(R1, 0x00000400)
T4448 000:681.654 - 0.019ms returns 0x00
T4448 000:681.669 JLINK_WriteReg(R2, 0x000000FF)
T4448 000:681.682 - 0.019ms returns 0x00
T4448 000:681.696 JLINK_WriteReg(R3, 0x00000000)
T4448 000:681.710 - 0.019ms returns 0x00
T4448 000:681.724 JLINK_WriteReg(R4, 0x00000000)
T4448 000:681.737 - 0.019ms returns 0x00
T4448 000:681.752 JLINK_WriteReg(R5, 0x00000000)
T4448 000:681.764 - 0.019ms returns 0x00
T4448 000:681.779 JLINK_WriteReg(R6, 0x00000000)
T4448 000:681.792 - 0.019ms returns 0x00
T4448 000:681.807 JLINK_WriteReg(R7, 0x00000000)
T4448 000:681.820 - 0.019ms returns 0x00
T4448 000:681.834 JLINK_WriteReg(R8, 0x00000000)
T4448 000:681.850 - 0.026ms returns 0x00
T4448 000:681.869 JLINK_WriteReg(R9, 0x200001A8)
T4448 000:681.882 - 0.019ms returns 0x00
T4448 000:681.897 JLINK_WriteReg(R10, 0x00000000)
T4448 000:681.909 - 0.019ms returns 0x00
T4448 000:681.924 JLINK_WriteReg(R11, 0x00000000)
T4448 000:681.937 - 0.019ms returns 0x00
T4448 000:681.952 JLINK_WriteReg(R12, 0x00000000)
T4448 000:681.964 - 0.019ms returns 0x00
T4448 000:681.979 JLINK_WriteReg(R13 (SP), 0x20001000)
T4448 000:681.992 - 0.019ms returns 0x00
T4448 000:682.007 JLINK_WriteReg(R14, 0x20000001)
T4448 000:682.020 - 0.019ms returns 0x00
T4448 000:682.035 JLINK_WriteReg(R15 (PC), 0x20000020)
T4448 000:682.048 - 0.019ms returns 0x00
T4448 000:682.062 JLINK_WriteReg(XPSR, 0x01000000)
T4448 000:682.075 - 0.019ms returns 0x00
T4448 000:682.090 JLINK_WriteReg(MSP, 0x20001000)
T4448 000:682.103 - 0.019ms returns 0x00
T4448 000:682.117 JLINK_WriteReg(PSP, 0x20001000)
T4448 000:682.130 - 0.019ms returns 0x00
T4448 000:682.145 JLINK_WriteReg(CFBP, 0x00000000)
T4448 000:682.158 - 0.019ms returns 0x00
T4448 000:682.173   JLINK_SetBPEx(Addr = 0x20000000, Type = 0xFFFFFFF2)
T4448 000:682.193 - 0.026ms returns 0x0000000E
T4448 000:682.210 JLINK_Go()
T4448 000:682.229   CPU_ReadMem(4 bytes @ 0xE0001000)
T4448 000:686.937 - 4.744ms
T4448 000:686.966 JLINK_IsHalted()
T4448 000:690.590   CPU_ReadMem(2 bytes @ 0x20000000)
T4448 000:691.709 - 4.759ms returns TRUE
T4448 000:691.738 JLINK_ReadReg(R15 (PC))
T4448 000:691.754 - 0.023ms returns 0x20000000
T4448 000:691.769 JLINK_ClrBPEx(BPHandle = 0x0000000E)
T4448 000:691.783 - 0.020ms returns 0x00
T4448 000:691.799 JLINK_ReadReg(R0)
T4448 000:691.812 - 0.020ms returns 0x00000001
T4448 000:691.831 JLINK_WriteReg(R0, 0x08005800)
T4448 000:691.851 - 0.027ms returns 0x00
T4448 000:691.867 JLINK_WriteReg(R1, 0x00000400)
T4448 000:691.881 - 0.020ms returns 0x00
T4448 000:691.896 JLINK_WriteReg(R2, 0x000000FF)
T4448 000:691.909 - 0.020ms returns 0x00
T4448 000:691.925 JLINK_WriteReg(R3, 0x00000000)
T4448 000:691.938 - 0.019ms returns 0x00
T4448 000:691.953 JLINK_WriteReg(R4, 0x00000000)
T4448 000:691.966 - 0.019ms returns 0x00
T4448 000:691.981 JLINK_WriteReg(R5, 0x00000000)
T4448 000:691.994 - 0.019ms returns 0x00
T4448 000:692.009 JLINK_WriteReg(R6, 0x00000000)
T4448 000:692.022 - 0.019ms returns 0x00
T4448 000:692.037 JLINK_WriteReg(R7, 0x00000000)
T4448 000:692.050 - 0.019ms returns 0x00
T4448 000:692.065 JLINK_WriteReg(R8, 0x00000000)
T4448 000:692.078 - 0.019ms returns 0x00
T4448 000:692.094 JLINK_WriteReg(R9, 0x200001A8)
T4448 000:692.107 - 0.020ms returns 0x00
T4448 000:692.123 JLINK_WriteReg(R10, 0x00000000)
T4448 000:692.136 - 0.019ms returns 0x00
T4448 000:692.151 JLINK_WriteReg(R11, 0x00000000)
T4448 000:692.164 - 0.019ms returns 0x00
T4448 000:692.179 JLINK_WriteReg(R12, 0x00000000)
T4448 000:692.192 - 0.019ms returns 0x00
T4448 000:692.207 JLINK_WriteReg(R13 (SP), 0x20001000)
T4448 000:692.220 - 0.020ms returns 0x00
T4448 000:692.235 JLINK_WriteReg(R14, 0x20000001)
T4448 000:692.248 - 0.021ms returns 0x00
T4448 000:692.265 JLINK_WriteReg(R15 (PC), 0x200000C2)
T4448 000:692.279 - 0.019ms returns 0x00
T4448 000:692.293 JLINK_WriteReg(XPSR, 0x01000000)
T4448 000:692.306 - 0.019ms returns 0x00
T4448 000:692.321 JLINK_WriteReg(MSP, 0x20001000)
T4448 000:692.334 - 0.019ms returns 0x00
T4448 000:692.349 JLINK_WriteReg(PSP, 0x20001000)
T4448 000:692.362 - 0.019ms returns 0x00
T4448 000:692.377 JLINK_WriteReg(CFBP, 0x00000000)
T4448 000:692.390 - 0.019ms returns 0x00
T4448 000:692.405   JLINK_SetBPEx(Addr = 0x20000000, Type = 0xFFFFFFF2)
T4448 000:692.425 - 0.026ms returns 0x0000000F
T4448 000:692.440 JLINK_Go()
T4448 000:692.459   CPU_ReadMem(4 bytes @ 0xE0001000)
T4448 000:696.416 - 3.997ms
T4448 000:696.456 JLINK_IsHalted()
T4448 000:697.428 - 0.988ms returns FALSE
T4448 000:702.824 JLINK_IsHalted()
T4448 000:706.266   CPU_ReadMem(2 bytes @ 0x20000000)
T4448 000:707.386 - 4.598ms returns TRUE
T4448 000:707.438 JLINK_ReadReg(R15 (PC))
T4448 000:707.461 - 0.034ms returns 0x20000000
T4448 000:707.481 JLINK_ClrBPEx(BPHandle = 0x0000000F)
T4448 000:707.495 - 0.020ms returns 0x00
T4448 000:707.510 JLINK_ReadReg(R0)
T4448 000:707.524 - 0.020ms returns 0x00000000
T4448 000:708.748 JLINK_WriteReg(R0, 0x08005C00)
T4448 000:708.836 - 0.103ms returns 0x00
T4448 000:708.870 JLINK_WriteReg(R1, 0x00000400)
T4448 000:708.891 - 0.028ms returns 0x00
T4448 000:708.907 JLINK_WriteReg(R2, 0x000000FF)
T4448 000:708.921 - 0.020ms returns 0x00
T4448 000:708.936 JLINK_WriteReg(R3, 0x00000000)
T4448 000:708.948 - 0.019ms returns 0x00
T4448 000:708.963 JLINK_WriteReg(R4, 0x00000000)
T4448 000:708.976 - 0.019ms returns 0x00
T4448 000:708.993 JLINK_WriteReg(R5, 0x00000000)
T4448 000:709.008 - 0.021ms returns 0x00
T4448 000:709.023 JLINK_WriteReg(R6, 0x00000000)
